
T1754 000:065 SEGGER J-Link V6.10i Log File (0000ms, 0048ms total)
T1754 000:065 DLL Compiled: Oct 25 2016 19:31:51 (0001ms, 0049ms total)
T1754 000:065 Logging started @ 2022-01-11 17:41 (0001ms, 0049ms total)
T1754 000:066 JLINK_SetWarnOutHandler(...) (0000ms, 0049ms total)
T1754 000:066 JLINK_OpenEx(...)
Firmware: J-Link V9 compiled Sep  1 2016 18:29:50
Hardware: V9.60
S/N: 69612020
Feature(s): RDI, GDB, FlashDL, FlashBP, JFlashWEBSRV Webserver running on local port 19080 (0028ms, 0077ms total)
T1754 000:066   returns O.K. (0028ms, 0077ms total)
T1754 000:094 JLINK_SetErrorOutHandler(...) (0000ms, 0077ms total)
T1754 000:094 JLINK_ExecCommand("ProjectFile = "D:\case\Eric820\ERIC820-5(3wave)\calculateV2\ERIC820calculate_V2.0\Project\MDK-ARM(uV4)\JLinkSettings.ini"", ...).   returns 0x00 (0077ms, 0154ms total)
T1754 000:171 JLINK_ExecCommand("Device = STM32F429BI", ...). Device "STM32F429BI" selected.  returns 0x00 (0000ms, 0154ms total)
T1754 000:172 JLINK_ExecCommand("DisableConnectionTimeout", ...).   returns 0x01 (0000ms, 0155ms total)
T1754 000:172 JLINK_GetHardwareVersion()  returns 0x17700 (0000ms, 0155ms total)
T1754 000:172 JLINK_GetDLLVersion()  returns 61009 (0000ms, 0155ms total)
T1754 000:172 JLINK_GetFirmwareString(...) (0000ms, 0155ms total)
T1754 000:172 JLINK_GetDLLVersion()  returns 61009 (0000ms, 0155ms total)
T1754 000:172 JLINK_GetCompileDateTime() (0000ms, 0155ms total)
T1754 000:172 JLINK_GetFirmwareString(...) (0000ms, 0155ms total)
T1754 000:172 JLINK_GetHardwareVersion()  returns 0x17700 (0000ms, 0155ms total)
T1754 000:172 JLINK_TIF_Select(JLINKARM_TIF_SWD)  returns 0x00 (0006ms, 0161ms total)
T1754 000:178 JLINK_SetSpeed(5000) (0001ms, 0162ms total)
T1754 000:179 JLINK_GetId() >0x108 TIF> >0x108 TIF> >0x108 TIF>Found SWD-DP with ID 0x2BA01477 >0x0D TIF> >0x28 TIF> >0x0D TIF> >0x28 TIF>SWD speed too high. Reduced from 4000 kHz to 2700 kHz for stability >0x0D TIF> >0x28 TIF> >0x0D TIF> >0x28 TIF> >0x0D TIF> >0x21 TIF> >0x0D TIF> >0x28 TIF> >0x0D TIF> >0x28 TIF> >0x0D TIF> >0x28 TIF> >0x0D TIF> >0x21 TIF> >0x0D TIF> >0x21 TIF> >0x0D TIF> >0x28 TIF> >0x0D TIF> >0x21 TIF> >0x0D TIF> >0x21 TIF> >0x0D TIF> >0x28 TIF> >0x0D TIF> >0x21 TIF> >0x0D TIF>
 >0x21 TIF> >0x0D TIF> >0x28 TIF> >0x0D TIF> >0x21 TIF> >0x0D TIF> >0x21 TIF> >0x0D TIF> >0x28 TIF> >0x0D TIF> >0x21 TIF> >0x0D TIF> >0x21 TIF> >0x0D TIF> >0x28 TIF> >0x0D TIF> >0x21 TIF> >0x0D TIF> >0x21 TIF> >0x0D TIF> >0x28 TIF> >0x0D TIF> >0x21 TIF> >0x0D TIF> >0x21 TIF> >0x108 TIF>Found SWD-DP with ID 0x2BA01477 >0x0D TIF> >0x28 TIF> >0x0D TIF> >0x28 TIF> >0x0D TIF> >0x28 TIF> >0x0D TIF> >0x28 TIF> >0x0D TIF> >0x21 TIF> >0x0D TIF> >0x28 TIF> >0x0D TIF> >0x28 TIF> >0x0D TIF> >0x21 TIF> >0x0D TIF>
 >0x21 TIF> >0x0D TIF> >0x21 TIF>AP-IDR: 0x24770011, Type: AHB-AP >0x0D TIF> >0x28 TIF> >0x0D TIF> >0x28 TIF> >0x0D TIF> >0x28 TIF> >0x0D TIF> >0x21 TIF> >0x0D TIF> >0x21 TIF> >0x0D TIF> >0x28 TIF> >0x0D TIF> >0x21 TIF> >0x0D TIF> >0x21 TIF>Found Cortex-M4 r0p1, Little endian. -- CPU_ReadMem(4 bytes @ 0xE000EDF0) -- CPU_ReadMem(4 bytes @ 0xE0002000)FPUnit: 6 code (BP) slots and 2 literal slots -- CPU_ReadMem(4 bytes @ 0xE000EDFC) -- CPU_ReadMem(4 bytes @ 0xE0001000) -- CPU_WriteMem(4 bytes @ 0xE0001000)
 -- CPU_ReadMem(4 bytes @ 0xE000ED88) -- CPU_WriteMem(4 bytes @ 0xE000ED88) -- CPU_ReadMem(4 bytes @ 0xE000ED88) -- CPU_WriteMem(4 bytes @ 0xE000ED88)CoreSight components:ROMTbl 0 @ E00FF000 -- CPU_ReadMem(16 bytes @ 0xE00FF000) -- CPU_ReadMem(16 bytes @ 0xE000EFF0) -- CPU_ReadMem(16 bytes @ 0xE000EFE0)ROMTbl 0 [0]: FFF0F000, CID: B105E00D, PID: 000BB00C SCS -- CPU_ReadMem(16 bytes @ 0xE0001FF0) -- CPU_ReadMem(16 bytes @ 0xE0001FE0)ROMTbl 0 [1]: FFF02000, CID: B105E00D, PID: 003BB002 DWT
 -- CPU_ReadMem(16 bytes @ 0xE0002FF0) -- CPU_ReadMem(16 bytes @ 0xE0002FE0)ROMTbl 0 [2]: FFF03000, CID: B105E00D, PID: 002BB003 FPB -- CPU_ReadMem(16 bytes @ 0xE0000FF0) -- CPU_ReadMem(16 bytes @ 0xE0000FE0)ROMTbl 0 [3]: FFF01000, CID: B105E00D, PID: 003BB001 ITM -- CPU_ReadMem(16 bytes @ 0xE00FF010) -- CPU_ReadMem(16 bytes @ 0xE0040FF0) -- CPU_ReadMem(16 bytes @ 0xE0040FE0)ROMTbl 0 [4]: FFF41000, CID: B105900D, PID: 000BB9A1 TPIU -- CPU_ReadMem(16 bytes @ 0xE0041FF0)
 -- CPU_ReadMem(16 bytes @ 0xE0041FE0)ROMTbl 0 [5]: FFF42000, CID: B105900D, PID: 000BB925 ETM >0x0D TIF> >0x21 TIF>  returns 0x2BA01477 (0244ms, 0406ms total)
T1754 000:423 JLINK_GetDLLVersion()  returns 61009 (0000ms, 0406ms total)
T1754 000:423 JLINK_CORE_GetFound()  returns 0xE0000FF (0000ms, 0406ms total)
T1754 000:423 JLINK_GetDebugInfo(0x100) -- Value=0xE00FF000  returns 0x00 (0000ms, 0406ms total)
T1754 000:423 JLINK_GetDebugInfo(0x100) -- Value=0xE00FF000  returns 0x00 (0000ms, 0406ms total)
T1754 000:423 JLINK_GetDebugInfo(0x101) -- Value=0xE0041000  returns 0x00 (0000ms, 0406ms total)
T1754 000:423 JLINK_GetDebugInfo(0x102) -- Value=0x00000000  returns 0x00 (0000ms, 0406ms total)
T1754 000:423 JLINK_GetDebugInfo(0x103) -- Value=0xE0040000  returns 0x00 (0001ms, 0407ms total)
T1754 000:424 JLINK_GetDebugInfo(0x104) -- Value=0xE0000000  returns 0x00 (0000ms, 0407ms total)
T1754 000:424 JLINK_GetDebugInfo(0x105) -- Value=0xE0001000  returns 0x00 (0000ms, 0407ms total)
T1754 000:424 JLINK_GetDebugInfo(0x106) -- Value=0xE0002000  returns 0x00 (0000ms, 0407ms total)
T1754 000:424 JLINK_GetDebugInfo(0x107) -- Value=0xE000E000  returns 0x00 (0000ms, 0407ms total)
T1754 000:424 JLINK_GetDebugInfo(0x10C) -- Value=0xE000EDF0  returns 0x00 (0000ms, 0407ms total)
T1754 000:424 JLINK_ReadMemU32(0xE000EF40, 0x0001 Items, ...) -- CPU is running -- CPU_ReadMem(4 bytes @ 0xE000EF40) - Data: 21 00 11 10  returns 0x01 (0002ms, 0409ms total)
T1754 000:426 JLINK_ReadMemU32(0xE000EF44, 0x0001 Items, ...) -- CPU is running -- CPU_ReadMem(4 bytes @ 0xE000EF44) - Data: 11 00 00 11  returns 0x01 (0001ms, 0410ms total)
T1754 000:427 JLINK_ReadMemU32(0xE000ED00, 0x0001 Items, ...) -- CPU is running -- CPU_ReadMem(4 bytes @ 0xE000ED00) - Data: 41 C2 0F 41  returns 0x01 (0001ms, 0411ms total)
T1754 000:428 JLINK_SetResetType(JLINKARM_RESET_TYPE_NORMAL)  returns JLINKARM_RESET_TYPE_NORMAL (0000ms, 0411ms total)
T1754 000:428 JLINK_Reset() -- CPU is running -- CPU_WriteMem(4 bytes @ 0xE000EDF0) -- CPU is running -- CPU_WriteMem(4 bytes @ 0xE000EDFC) >0x35 TIF> -- CPU is running -- CPU_WriteMem(4 bytes @ 0xE000ED0C) -- CPU is running -- CPU_ReadMem(4 bytes @ 0xE000EDF0) -- CPU is running -- CPU_ReadMem(4 bytes @ 0xE000EDF0) -- CPU is running -- CPU_WriteMem(4 bytes @ 0xE000EDF0) -- CPU is running -- CPU_WriteMem(4 bytes @ 0xE000EDFC) -- CPU is running -- CPU_ReadMem(4 bytes @ 0xE000EDF0)
 -- CPU_WriteMem(4 bytes @ 0xE0002000) -- CPU_ReadMem(4 bytes @ 0xE000EDFC) -- CPU_ReadMem(4 bytes @ 0xE0001000) (0024ms, 0435ms total)
T1754 000:452 JLINK_ReadReg(R15 (PC))  returns 0x08000A70 (0000ms, 0435ms total)
T1754 000:452 JLINK_ReadReg(XPSR)  returns 0x01000000 (0000ms, 0435ms total)
T1754 000:453 JLINK_Halt()  returns 0x00 (0000ms, 0435ms total)
T1754 000:453 JLINK_IsHalted()  returns TRUE (0000ms, 0435ms total)
T1754 000:453 JLINK_ReadMemU32(0xE000EDF0, 0x0001 Items, ...) -- CPU_ReadMem(4 bytes @ 0xE000EDF0) - Data: 03 00 03 00  returns 0x01 (0001ms, 0436ms total)
T1754 000:454 JLINK_WriteU32(0xE000EDF0, 0xA05F0003) -- CPU_WriteMem(4 bytes @ 0xE000EDF0)  returns 0x00 (0001ms, 0437ms total)
T1754 000:455 JLINK_WriteU32(0xE000EDFC, 0x01000000) -- CPU_WriteMem(4 bytes @ 0xE000EDFC)  returns 0x00 (0001ms, 0438ms total)
T1754 000:456 JLINK_GetHWStatus(...)  returns 0x00 (0001ms, 0439ms total)
T1754 000:457 JLINK_GetNumBPUnits(Type = 0xFFFFFF00)  returns 0x06 (0000ms, 0439ms total)
T1754 000:457 JLINK_GetNumBPUnits(Type = 0xF0)  returns 0x2000 (0000ms, 0439ms total)
T1754 000:457 JLINK_GetNumWPUnits()  returns 0x04 (0000ms, 0439ms total)
T1754 000:458 JLINK_GetSpeed()  returns 0x960 (0000ms, 0439ms total)
T1754 000:458 JLINK_ReadMemU32(0xE000E004, 0x0001 Items, ...) -- CPU_ReadMem(4 bytes @ 0xE000E004) - Data: 02 00 00 00  returns 0x01 (0001ms, 0440ms total)
T1754 000:459 JLINK_ReadMemU32(0xE000E004, 0x0001 Items, ...) -- CPU_ReadMem(4 bytes @ 0xE000E004) - Data: 02 00 00 00  returns 0x01 (0001ms, 0441ms total)
T1754 000:460 JLINK_WriteMem(0xE0001000, 0x001C Bytes, ...) - Data: 01 00 00 00 00 00 00 00 00 00 00 00 00 00 00 00 ... -- CPU_WriteMem(28 bytes @ 0xE0001000)  returns 0x1C (0003ms, 0444ms total)
T1754 000:463 JLINK_ReadMem (0xE0001000, 0x001C Bytes, ...) -- CPU_ReadMem(28 bytes @ 0xE0001000) - Data: 01 00 00 40 00 00 00 00 00 00 00 00 00 00 00 00 ...  returns 0x00 (0001ms, 0445ms total)
T1754 000:464 JLINK_ReadReg(R15 (PC))  returns 0x08000A70 (0000ms, 0445ms total)
T1754 000:464 JLINK_ReadReg(XPSR)  returns 0x01000000 (0000ms, 0445ms total)
T1754 000:570 JLINK_ReadMem (0x08000000, 0x1000 Bytes, ...) -- CPU_ReadMem(4096 bytes @ 0x08000000) -- Updating C cache (4096 bytes @ 0x08000000) -- Read from C cache (4096 bytes @ 0x08000000) - Data: E8 72 01 20 71 0A 00 08 45 A1 00 08 4D 71 00 08 ...  returns 0x00 (0028ms, 0473ms total)
T1754 000:598 JLINK_ReadMem (0x08001000, 0x1000 Bytes, ...) -- CPU_ReadMem(4096 bytes @ 0x08001000) -- Updating C cache (4096 bytes @ 0x08001000) -- Read from C cache (4096 bytes @ 0x08001000) - Data: A8 D1 03 08 C8 D1 03 08 70 B5 8D 18 10 F8 01 4B ...  returns 0x00 (0030ms, 0503ms total)
T1754 000:630 JLINK_ReadMem (0x08002000, 0x1000 Bytes, ...) -- CPU_ReadMem(4096 bytes @ 0x08002000) -- Updating C cache (4096 bytes @ 0x08002000) -- Read from C cache (4096 bytes @ 0x08002000) - Data: 28 48 00 68 82 88 27 48 00 68 01 88 29 48 00 88 ...  returns 0x00 (0028ms, 0531ms total)
T1754 000:660 JLINK_ReadMem (0x08003000, 0x1000 Bytes, ...) -- CPU_ReadMem(4096 bytes @ 0x08003000) -- Updating C cache (4096 bytes @ 0x08003000) -- Read from C cache (4096 bytes @ 0x08003000) - Data: CF DB FF 20 11 49 12 4A 12 78 51 F8 22 10 08 70 ...  returns 0x00 (0029ms, 0560ms total)
T1754 000:690 JLINK_ReadMem (0x08004000, 0x1000 Bytes, ...) -- CPU_ReadMem(4096 bytes @ 0x08004000) -- Updating C cache (4096 bytes @ 0x08004000) -- Read from C cache (4096 bytes @ 0x08004000) - Data: 00 F5 D8 73 03 EB 01 13 9B 68 1B 0E 93 73 00 F5 ...  returns 0x00 (0029ms, 0589ms total)
T1754 000:721 JLINK_ReadMem (0x08005000, 0x1000 Bytes, ...) -- CPU_ReadMem(4096 bytes @ 0x08005000) -- Updating C cache (4096 bytes @ 0x08005000) -- Read from C cache (4096 bytes @ 0x08005000) - Data: D9 48 02 F0 53 F8 0C 22 0F 21 D7 48 02 F0 4E F8 ...  returns 0x00 (0028ms, 0617ms total)
T1754 000:751 JLINK_ReadMem (0x08006000, 0x1000 Bytes, ...) -- CPU_ReadMem(4096 bytes @ 0x08006000) -- Updating C cache (4096 bytes @ 0x08006000) -- Read from C cache (4096 bytes @ 0x08006000) - Data: 36 48 01 F0 53 F8 4D F6 B3 00 0D 90 02 20 8D F8 ...  returns 0x00 (0029ms, 0646ms total)
T1754 000:781 JLINK_ReadMem (0x08007000, 0x1000 Bytes, ...) -- CPU_ReadMem(4096 bytes @ 0x08007000) -- Updating C cache (4096 bytes @ 0x08007000) -- Read from C cache (4096 bytes @ 0x08007000) - Data: 4B 73 23 F8 11 40 4B 1C D9 B2 03 29 D3 DB 10 BD ...  returns 0x00 (0029ms, 0675ms total)
T1754 000:812 JLINK_ReadMem (0x08008000, 0x1000 Bytes, ...) -- CPU_ReadMem(4096 bytes @ 0x08008000) -- Updating C cache (4096 bytes @ 0x08008000) -- Read from C cache (4096 bytes @ 0x08008000) - Data: A0 FE 04 46 68 1C 85 B2 A5 48 00 88 85 42 E9 DB ...  returns 0x00 (0028ms, 0703ms total)
T1754 000:842 JLINK_ReadMem (0x08009000, 0x1000 Bytes, ...) -- CPU_ReadMem(4096 bytes @ 0x08009000) -- Updating C cache (4096 bytes @ 0x08009000) -- Read from C cache (4096 bytes @ 0x08009000) - Data: 00 00 00 00 31 3A 2F 53 45 56 25 64 2E 74 78 74 ...  returns 0x00 (0028ms, 0731ms total)
T1754 000:872 JLINK_ReadMem (0x0800A000, 0x1000 Bytes, ...) -- CPU_ReadMem(4096 bytes @ 0x0800A000) -- Updating C cache (4096 bytes @ 0x0800A000) -- Read from C cache (4096 bytes @ 0x0800A000) - Data: 1C D1 28 46 FF F7 14 FE 01 28 05 D1 28 46 FF F7 ...  returns 0x00 (0029ms, 0760ms total)
T1754 000:902 JLINK_ReadMem (0x0800B000, 0x1000 Bytes, ...) -- CPU_ReadMem(4096 bytes @ 0x0800B000) -- Updating C cache (4096 bytes @ 0x0800B000) -- Read from C cache (4096 bytes @ 0x0800B000) - Data: 01 05 C5 F3 05 40 20 70 C5 F3 06 20 60 70 05 F0 ...  returns 0x00 (0029ms, 0789ms total)
T1754 000:933 JLINK_ReadMem (0x0800C000, 0x1000 Bytes, ...) -- CPU_ReadMem(4096 bytes @ 0x0800C000) -- Updating C cache (4096 bytes @ 0x0800C000) -- Read from C cache (4096 bytes @ 0x0800C000) - Data: C8 60 4F F4 80 60 08 61 08 46 FF F7 DB FB 69 46 ...  returns 0x00 (0029ms, 0818ms total)
T1754 000:963 JLINK_ReadMem (0x0800D000, 0x1000 Bytes, ...) -- CPU_ReadMem(4096 bytes @ 0x0800D000) -- Updating C cache (4096 bytes @ 0x0800D000) -- Read from C cache (4096 bytes @ 0x0800D000) - Data: 04 60 01 20 09 49 48 60 00 20 48 72 08 72 08 46 ...  returns 0x00 (0029ms, 0847ms total)
T1754 000:994 JLINK_ReadMem (0x0800E000, 0x1000 Bytes, ...) -- CPU_ReadMem(4096 bytes @ 0x0800E000) -- Updating C cache (4096 bytes @ 0x0800E000) -- Read from C cache (4096 bytes @ 0x0800E000) - Data: 02 49 08 70 01 48 00 78 10 BD 00 00 19 11 00 20 ...  returns 0x00 (0030ms, 0877ms total)
T1754 001:025 JLINK_ReadMem (0x0800F000, 0x1000 Bytes, ...) -- CPU_ReadMem(4096 bytes @ 0x0800F000) -- Updating C cache (4096 bytes @ 0x0800F000) -- Read from C cache (4096 bytes @ 0x0800F000) - Data: 00 09 B8 FB F6 F0 40 1E 87 B2 07 97 AD F8 18 90 ...  returns 0x00 (0029ms, 0906ms total)
T1754 001:056 JLINK_ReadMem (0x08010000, 0x1000 Bytes, ...) -- CPU_ReadMem(4096 bytes @ 0x08010000) -- Updating C cache (4096 bytes @ 0x08010000) -- Read from C cache (4096 bytes @ 0x08010000) - Data: 28 60 20 46 70 BD 70 B5 04 46 20 46 02 F0 BE F8 ...  returns 0x00 (0030ms, 0936ms total)
T1754 001:087 JLINK_ReadMem (0x08011000, 0x1000 Bytes, ...) -- CPU_ReadMem(4096 bytes @ 0x08011000) -- Updating C cache (4096 bytes @ 0x08011000) -- Read from C cache (4096 bytes @ 0x08011000) - Data: 18 02 20 61 D4 F8 1C 02 E0 60 25 70 08 48 00 88 ...  returns 0x00 (0029ms, 0965ms total)
T1754 001:118 JLINK_ReadMem (0x08012000, 0x1000 Bytes, ...) -- CPU_ReadMem(4096 bytes @ 0x08012000) -- Updating C cache (4096 bytes @ 0x08012000) -- Read from C cache (4096 bytes @ 0x08012000) - Data: FF F7 52 FC 00 B9 00 E0 01 E0 00 20 7D E7 01 20 ...  returns 0x00 (0030ms, 0995ms total)
T1754 001:149 JLINK_ReadMem (0x08013000, 0x1000 Bytes, ...) -- CPU_ReadMem(4096 bytes @ 0x08013000) -- Updating C cache (4096 bytes @ 0x08013000) -- Read from C cache (4096 bytes @ 0x08013000) - Data: 4E 81 30 4E E1 B7 31 4E 4F 81 32 4E AE B4 33 4E ...  returns 0x00 (0029ms, 1024ms total)
T1754 001:180 JLINK_ReadMem (0x08014000, 0x1000 Bytes, ...) -- CPU_ReadMem(4096 bytes @ 0x08014000) -- Updating C cache (4096 bytes @ 0x08014000) -- Read from C cache (4096 bytes @ 0x08014000) - Data: 6A 84 30 52 BD B5 31 52 6B 84 32 52 6C 84 33 52 ...  returns 0x00 (0030ms, 1054ms total)
T1754 001:211 JLINK_ReadMem (0x08015000, 0x1000 Bytes, ...) -- CPU_ReadMem(4096 bytes @ 0x08015000) -- Updating C cache (4096 bytes @ 0x08015000) -- Read from C cache (4096 bytes @ 0x08015000) - Data: 5B 87 30 56 5C 87 31 56 F6 D6 32 56 B0 B3 33 56 ...  returns 0x00 (0029ms, 1083ms total)
T1754 001:242 JLINK_ReadMem (0x08016000, 0x1000 Bytes, ...) -- CPU_ReadMem(4096 bytes @ 0x08016000) -- Updating C cache (4096 bytes @ 0x08016000) -- Read from C cache (4096 bytes @ 0x08016000) - Data: D8 8A 30 5A D9 8A 31 5A E9 D3 32 5A B4 E6 33 5A ...  returns 0x00 (0029ms, 1112ms total)
T1754 001:273 JLINK_ReadMem (0x08017000, 0x1000 Bytes, ...) -- CPU_ReadMem(4096 bytes @ 0x08017000) -- Updating C cache (4096 bytes @ 0x08017000) -- Read from C cache (4096 bytes @ 0x08017000) - Data: A1 8E 30 5E A2 8E 31 5E FC E0 32 5E A3 8E 33 5E ...  returns 0x00 (0029ms, 1142ms total)
T1754 001:304 JLINK_ReadMem (0x08018000, 0x1000 Bytes, ...) -- CPU_ReadMem(4096 bytes @ 0x08018000) -- Updating C cache (4096 bytes @ 0x08018000) -- Read from C cache (4096 bytes @ 0x08018000) - Data: EF 91 30 62 F0 91 31 62 F1 91 32 62 F2 91 33 62 ...  returns 0x00 (0028ms, 1170ms total)
T1754 001:334 JLINK_ReadMem (0x08019000, 0x1000 Bytes, ...) -- CPU_ReadMem(4096 bytes @ 0x08019000) -- Updating C cache (4096 bytes @ 0x08019000) -- Read from C cache (4096 bytes @ 0x08019000) - Data: C7 CA 30 66 67 95 31 66 C5 EA 32 66 68 95 33 66 ...  returns 0x00 (0029ms, 1199ms total)
T1754 001:366 JLINK_ReadMem (0x0801A000, 0x1000 Bytes, ...) -- CPU_ReadMem(4096 bytes @ 0x0801A000) -- Updating C cache (4096 bytes @ 0x0801A000) -- Read from C cache (4096 bytes @ 0x0801A000) - Data: C9 E9 30 6A DD 98 31 6A A3 D3 32 6A DE 98 33 6A ...  returns 0x00 (0030ms, 1229ms total)
T1754 001:397 JLINK_ReadMem (0x0801B000, 0x1000 Bytes, ...) -- CPU_ReadMem(4096 bytes @ 0x0801B000) -- Updating C cache (4096 bytes @ 0x0801B000) -- Read from C cache (4096 bytes @ 0x0801B000) - Data: DB B8 30 6E 7B 9C 31 6E 7C 9C 32 6E D6 E4 33 6E ...  returns 0x00 (0029ms, 1258ms total)
T1754 001:427 JLINK_ReadMem (0x0801C000, 0x1000 Bytes, ...) -- CPU_ReadMem(4096 bytes @ 0x0801C000) -- Updating C cache (4096 bytes @ 0x0801C000) -- Read from C cache (4096 bytes @ 0x0801C000) - Data: 90 A0 30 72 BC EB 31 72 AE B0 32 72 91 A0 33 72 ...  returns 0x00 (0029ms, 1287ms total)
T1754 001:457 JLINK_ReadMem (0x0801D000, 0x1000 Bytes, ...) -- CPU_ReadMem(4096 bytes @ 0x0801D000) -- Updating C cache (4096 bytes @ 0x0801D000) -- Read from C cache (4096 bytes @ 0x0801D000) - Data: 95 AF 30 76 A7 F1 31 76 96 AF 32 76 97 AF 33 76 ...  returns 0x00 (0029ms, 1316ms total)
T1754 001:487 JLINK_ReadMem (0x0801E000, 0x1000 Bytes, ...) -- CPU_ReadMem(4096 bytes @ 0x0801E000) -- Updating C cache (4096 bytes @ 0x0801E000) -- Read from C cache (4096 bytes @ 0x0801E000) - Data: 4F B7 30 7A 50 B7 31 7A 51 B7 32 7A 52 B7 33 7A ...  returns 0x00 (0029ms, 1345ms total)
T1754 001:517 JLINK_ReadMem (0x0801F000, 0x1000 Bytes, ...) -- CPU_ReadMem(4096 bytes @ 0x0801F000) -- Updating C cache (4096 bytes @ 0x0801F000) -- Read from C cache (4096 bytes @ 0x0801F000) - Data: 74 BF 30 7E 75 BF 31 7E 76 BF 32 7E 77 BF 33 7E ...  returns 0x00 (0029ms, 1374ms total)
T1754 001:547 JLINK_ReadMem (0x08020000, 0x1000 Bytes, ...) -- CPU_ReadMem(4096 bytes @ 0x08020000) -- Updating C cache (4096 bytes @ 0x08020000) -- Read from C cache (4096 bytes @ 0x08020000) - Data: B1 F4 30 82 A2 BD 31 82 D5 B2 32 82 7A C5 33 82 ...  returns 0x00 (0029ms, 1403ms total)
T1754 001:578 JLINK_ReadMem (0x08021000, 0x1000 Bytes, ...) -- CPU_ReadMem(4096 bytes @ 0x08021000) -- Updating C cache (4096 bytes @ 0x08021000) -- Read from C cache (4096 bytes @ 0x08021000) - Data: 6F CC 30 86 70 CC 31 86 71 CC 32 86 72 CC 33 86 ...  returns 0x00 (0028ms, 1431ms total)
T1754 001:608 JLINK_ReadMem (0x08022000, 0x1000 Bytes, ...) -- CPU_ReadMem(4096 bytes @ 0x08022000) -- Updating C cache (4096 bytes @ 0x08022000) -- Read from C cache (4096 bytes @ 0x08022000) - Data: 51 D4 30 8A 52 D4 31 8A 53 D4 32 8A 54 D4 33 8A ...  returns 0x00 (0028ms, 1459ms total)
T1754 001:638 JLINK_ReadMem (0x08023000, 0x1000 Bytes, ...) -- CPU_ReadMem(4096 bytes @ 0x08023000) -- Updating C cache (4096 bytes @ 0x08023000) -- Read from C cache (4096 bytes @ 0x08023000) - Data: DC F5 30 8E 75 DB 31 8E E2 F5 32 8E 76 DB 33 8E ...  returns 0x00 (0028ms, 1487ms total)
T1754 001:668 JLINK_ReadMem (0x08024000, 0x1000 Bytes, ...) -- CPU_ReadMem(4096 bytes @ 0x08024000) -- Updating C cache (4096 bytes @ 0x08024000) -- Read from C cache (4096 bytes @ 0x08024000) - Data: 8A E2 30 92 8B E2 31 92 8C E2 32 92 8D E2 33 92 ...  returns 0x00 (0028ms, 1515ms total)
T1754 001:697 JLINK_ReadMem (0x08025000, 0x1000 Bytes, ...) -- CPU_ReadMem(4096 bytes @ 0x08025000) -- Updating C cache (4096 bytes @ 0x08025000) -- Read from C cache (4096 bytes @ 0x08025000) - Data: 6E EA 30 96 6F EA 31 96 E5 DA 32 96 C0 B7 33 96 ...  returns 0x00 (0029ms, 1544ms total)
T1754 001:727 JLINK_ReadMem (0x08026000, 0x1000 Bytes, ...) -- CPU_ReadMem(4096 bytes @ 0x08026000) -- Updating C cache (4096 bytes @ 0x08026000) -- Read from C cache (4096 bytes @ 0x08026000) - Data: 75 F2 30 9A 76 F2 31 9A 77 F2 32 9A 78 F2 33 9A ...  returns 0x00 (0029ms, 1573ms total)
T1754 001:758 JLINK_ReadMem (0x08027000, 0x1000 Bytes, ...) -- CPU_ReadMem(4096 bytes @ 0x08027000) -- Updating C cache (4096 bytes @ 0x08027000) -- Read from C cache (4096 bytes @ 0x08027000) - Data: EC D1 30 9E 5F FB 31 9E B7 F0 32 9E B6 F0 33 9E ...  returns 0x00 (0028ms, 1601ms total)
T1754 001:788 JLINK_ReadMem (0x08028000, 0x1000 Bytes, ...) -- CPU_ReadMem(4096 bytes @ 0x08028000) -- Updating C cache (4096 bytes @ 0x08028000) -- Read from C cache (4096 bytes @ 0x08028000) - Data: 2B 51 A0 83 2C 51 A1 83 2D 51 A2 83 2E 51 A3 83 ...  returns 0x00 (0028ms, 1629ms total)
T1754 001:818 JLINK_ReadMem (0x08029000, 0x1000 Bytes, ...) -- CPU_ReadMem(4096 bytes @ 0x08029000) -- Updating C cache (4096 bytes @ 0x08029000) -- Read from C cache (4096 bytes @ 0x08029000) - Data: 25 58 EA 88 26 58 EB 88 27 58 EC 88 28 58 ED 88 ...  returns 0x00 (0030ms, 1659ms total)
T1754 001:849 JLINK_ReadMem (0x0802A000, 0x1000 Bytes, ...) -- CPU_ReadMem(4096 bytes @ 0x0802A000) -- Updating C cache (4096 bytes @ 0x0802A000) -- Read from C cache (4096 bytes @ 0x0802A000) - Data: D8 5D 75 8E D9 5D 76 8E DA 5D 77 8E DC 5D 78 8E ...  returns 0x00 (0029ms, 1688ms total)
T1754 001:879 JLINK_ReadMem (0x0802B000, 0x1000 Bytes, ...) -- CPU_ReadMem(4096 bytes @ 0x0802B000) -- Updating C cache (4096 bytes @ 0x0802B000) -- Read from C cache (4096 bytes @ 0x0802B000) - Data: 7D 64 C0 93 7E 64 C1 93 7F 64 C2 93 80 64 C3 93 ...  returns 0x00 (0029ms, 1717ms total)
T1754 001:909 JLINK_ReadMem (0x0802C000, 0x1000 Bytes, ...) -- CPU_ReadMem(4096 bytes @ 0x0802C000) -- Updating C cache (4096 bytes @ 0x0802C000) -- Read from C cache (4096 bytes @ 0x0802C000) - Data: 68 6A 4B 99 69 6A 4C 99 6A 6A 4D 99 6B 6A 4E 99 ...  returns 0x00 (0029ms, 1746ms total)
T1754 001:939 JLINK_ReadMem (0x0802D000, 0x1000 Bytes, ...) -- CPU_ReadMem(4096 bytes @ 0x0802D000) -- Updating C cache (4096 bytes @ 0x0802D000) -- Read from C cache (4096 bytes @ 0x0802D000) - Data: 42 70 96 9E 43 70 97 9E 44 70 98 9E 45 70 99 9E ...  returns 0x00 (0029ms, 1775ms total)
T1754 001:969 JLINK_ReadMem (0x0802E000, 0x1000 Bytes, ...) -- CPU_ReadMem(4096 bytes @ 0x0802E000) -- Updating C cache (4096 bytes @ 0x0802E000) -- Read from C cache (4096 bytes @ 0x0802E000) - Data: 2F 04 D1 A7 30 04 D2 A7 31 04 D3 A7 32 04 D4 A7 ...  returns 0x00 (0029ms, 1804ms total)
T1754 001:999 JLINK_ReadMem (0x0802F000, 0x1000 Bytes, ...) -- CPU_ReadMem(4096 bytes @ 0x0802F000) -- Updating C cache (4096 bytes @ 0x0802F000) -- Read from C cache (4096 bytes @ 0x0802F000) - Data: FA 80 B8 B0 48 68 B9 B0 AE 80 BA B0 02 66 BB B0 ...  returns 0x00 (0029ms, 1833ms total)
T1754 002:029 JLINK_ReadMem (0x08030000, 0x1000 Bytes, ...) -- CPU_ReadMem(4096 bytes @ 0x08030000) -- Updating C cache (4096 bytes @ 0x08030000) -- Read from C cache (4096 bytes @ 0x08030000) - Data: 95 79 43 B6 96 79 44 B6 97 79 45 B6 98 79 46 B6 ...  returns 0x00 (0028ms, 1861ms total)
T1754 002:058 JLINK_ReadMem (0x08031000, 0x1000 Bytes, ...) -- CPU_ReadMem(4096 bytes @ 0x08031000) -- Updating C cache (4096 bytes @ 0x08031000) -- Read from C cache (4096 bytes @ 0x08031000) - Data: 9B 7C 8E BB A0 7C 8F BB A1 7C 90 BB A3 7C 91 BB ...  returns 0x00 (0029ms, 1890ms total)
T1754 002:088 JLINK_ReadMem (0x08032000, 0x1000 Bytes, ...) -- CPU_ReadMem(4096 bytes @ 0x08032000) -- Updating C cache (4096 bytes @ 0x08032000) -- Read from C cache (4096 bytes @ 0x08032000) - Data: F7 96 D8 C0 6D 95 D9 C0 7E 85 DA C0 CA 78 DB C0 ...  returns 0x00 (0029ms, 1919ms total)
T1754 002:118 JLINK_ReadMem (0x08033000, 0x1000 Bytes, ...) -- CPU_ReadMem(4096 bytes @ 0x08033000) -- Updating C cache (4096 bytes @ 0x08033000) -- Read from C cache (4096 bytes @ 0x08033000) - Data: BA 82 63 C6 BB 82 64 C6 BC 82 65 C6 BF 82 66 C6 ...  returns 0x00 (0029ms, 1948ms total)
T1754 002:148 JLINK_ReadMem (0x08034000, 0x1000 Bytes, ...) -- CPU_ReadMem(4096 bytes @ 0x08034000) -- Updating C cache (4096 bytes @ 0x08034000) -- Read from C cache (4096 bytes @ 0x08034000) - Data: 01 8C AE CB 34 6C AF CB 61 77 B0 CB 0E 7A B1 CB ...  returns 0x00 (0030ms, 1978ms total)
T1754 002:179 JLINK_ReadMem (0x08035000, 0x1000 Bytes, ...) -- CPU_ReadMem(4096 bytes @ 0x08035000) -- Updating C cache (4096 bytes @ 0x08035000) -- Read from C cache (4096 bytes @ 0x08035000) - Data: EA 7E F8 D0 ED 7E F9 D0 69 8F FA D0 A7 55 FB D0 ...  returns 0x00 (0029ms, 2007ms total)
T1754 002:209 JLINK_ReadMem (0x08036000, 0x1000 Bytes, ...) -- CPU_ReadMem(4096 bytes @ 0x08036000) -- Updating C cache (4096 bytes @ 0x08036000) -- Read from C cache (4096 bytes @ 0x08036000) - Data: 28 8B 84 D6 29 8B 85 D6 2A 8B 86 D6 2B 8B 87 D6 ...  returns 0x00 (0029ms, 2036ms total)
T1754 002:239 JLINK_ReadMem (0x08037000, 0x1000 Bytes, ...) -- CPU_ReadMem(4096 bytes @ 0x08037000) -- Updating C cache (4096 bytes @ 0x08037000) -- Read from C cache (4096 bytes @ 0x08037000) - Data: A1 57 D3 DB 7E 58 D4 DB BC 58 D5 DB C5 58 D6 DB ...  returns 0x00 (0028ms, 2064ms total)
T1754 002:268 JLINK_ReadMem (0x08038000, 0x1000 Bytes, ...) -- CPU_ReadMem(4096 bytes @ 0x08038000) -- Updating C cache (4096 bytes @ 0x08038000) -- Read from C cache (4096 bytes @ 0x08038000) - Data: 88 91 5E E1 8A 91 5F E1 8E 91 60 E1 8F 91 61 E1 ...  returns 0x00 (0029ms, 2093ms total)
T1754 002:298 JLINK_ReadMem (0x08039000, 0x1000 Bytes, ...) -- CPU_ReadMem(4096 bytes @ 0x08039000) -- Updating C cache (4096 bytes @ 0x08039000) -- Read from C cache (4096 bytes @ 0x08039000) - Data: AF 59 A9 E6 D7 59 AA E6 BE 59 AB E6 05 5A AC E6 ...  returns 0x00 (0030ms, 2123ms total)
T1754 002:329 JLINK_ReadMem (0x0803A000, 0x1000 Bytes, ...) -- CPU_ReadMem(4096 bytes @ 0x0803A000) -- Updating C cache (4096 bytes @ 0x0803A000) -- Read from C cache (4096 bytes @ 0x0803A000) - Data: 67 81 F3 EB 4D 58 F4 EB B5 5A F5 EB 88 81 F6 EB ...  returns 0x00 (0029ms, 2152ms total)
T1754 002:359 JLINK_ReadMem (0x0803B000, 0x1000 Bytes, ...) -- CPU_ReadMem(4096 bytes @ 0x0803B000) -- Updating C cache (4096 bytes @ 0x0803B000) -- Read from C cache (4096 bytes @ 0x0803B000) - Data: D7 99 7E F1 D8 99 80 F1 D9 99 81 F1 DA 99 82 F1 ...  returns 0x00 (0030ms, 2182ms total)
T1754 002:390 JLINK_ReadMem (0x0803C000, 0x1000 Bytes, ...) -- CPU_ReadMem(4096 bytes @ 0x0803C000) -- Updating C cache (4096 bytes @ 0x0803C000) -- Read from C cache (4096 bytes @ 0x0803C000) - Data: C8 92 C9 F6 3E 93 CA F6 6A 93 CB F6 CA 93 CC F6 ...  returns 0x00 (0029ms, 2211ms total)
T1754 002:420 JLINK_ReadMem (0x0803D000, 0x0E44 Bytes, ...) -- CPU_ReadMem(3712 bytes @ 0x0803D000) -- Updating C cache (3712 bytes @ 0x0803D000) -- Read from C cache (3652 bytes @ 0x0803D000) - Data: 98 03 99 03 9A 03 9B 03 9C 03 9D 03 9E 03 9F 03 ...  returns 0x00 (0026ms, 2237ms total)
T1754 002:504 JLINK_SetResetType(JLINKARM_RESET_TYPE_NORMAL)  returns JLINKARM_RESET_TYPE_NORMAL (0000ms, 2237ms total)
T1754 002:504 JLINK_Reset() -- CPU_WriteMem(4 bytes @ 0xE000EDF0) -- CPU_WriteMem(4 bytes @ 0xE000EDFC) >0x35 TIF> -- CPU_WriteMem(4 bytes @ 0xE000ED0C) -- CPU_ReadMem(4 bytes @ 0xE000EDF0) -- CPU_ReadMem(4 bytes @ 0xE000EDF0) -- CPU_WriteMem(4 bytes @ 0xE000EDF0) -- CPU_WriteMem(4 bytes @ 0xE000EDFC) -- CPU is running -- CPU_ReadMem(4 bytes @ 0xE000EDF0) -- CPU_WriteMem(4 bytes @ 0xE0002000) -- CPU_ReadMem(4 bytes @ 0xE000EDFC) -- CPU_ReadMem(4 bytes @ 0xE0001000) (0025ms, 2262ms total)
T1754 002:530 JLINK_ReadReg(R15 (PC))  returns 0x08000A70 (0000ms, 2262ms total)
T1754 002:530 JLINK_ReadReg(XPSR)  returns 0x01000000 (0000ms, 2262ms total)
T1754 002:532 JLINK_ReadMem (0x08000A70, 0x003C Bytes, ...) -- CPU_ReadMem(128 bytes @ 0x08000A40) -- Updating C cache (128 bytes @ 0x08000A40) -- Read from C cache (60 bytes @ 0x08000A70) - Data: 06 48 80 47 06 48 00 47 FE E7 FE E7 FE E7 FE E7 ...  returns 0x00 (0002ms, 2264ms total)
T1754 002:621 JLINK_ReadMem (0x40006400, 0x001C Bytes, ...) -- CPU_ReadMem(28 bytes @ 0x40006400) - Data: 02 00 01 00 0A 0C 00 00 00 00 00 1C 00 00 00 00 ...  returns 0x00 (0001ms, 2265ms total)
T1754 002:622 JLINK_ReadMem (0x4000641C, 0x0004 Bytes, ...) -- CPU_ReadMem(4 bytes @ 0x4000641C) - Data: 00 00 23 01  returns 0x00 (0003ms, 2268ms total)
T1754 002:625 JLINK_ReadMem (0x40006580, 0x004C Bytes, ...) -- CPU_ReadMem(76 bytes @ 0x40006580) - Data: 00 00 00 00 00 00 00 00 00 00 00 00 00 00 00 00 ...  returns 0x00 (0002ms, 2270ms total)
T1754 002:627 JLINK_ReadMem (0x400065CC, 0x0004 Bytes, ...) -- CPU_ReadMem(4 bytes @ 0x400065CC) - Data: 00 00 00 00  returns 0x00 (0003ms, 2273ms total)
T1754 002:630 JLINK_ReadMem (0x40006600, 0x0004 Bytes, ...) -- CPU_ReadMem(4 bytes @ 0x40006600) - Data: 01 0E 1C 2A  returns 0x00 (0001ms, 2274ms total)
T1754 002:631 JLINK_ReadMem (0x40006604, 0x0004 Bytes, ...) -- CPU_ReadMem(4 bytes @ 0x40006604) - Data: 00 00 00 00  returns 0x00 (0001ms, 2275ms total)
T1754 002:632 JLINK_ReadMem (0x4000660C, 0x0004 Bytes, ...) -- CPU_ReadMem(4 bytes @ 0x4000660C) - Data: 00 00 00 00  returns 0x00 (0001ms, 2276ms total)
T1754 002:633 JLINK_ReadMem (0x40006614, 0x0004 Bytes, ...) -- CPU_ReadMem(4 bytes @ 0x40006614) - Data: 00 00 00 00  returns 0x00 (0001ms, 2277ms total)
T1754 002:634 JLINK_ReadMem (0x4000661C, 0x0004 Bytes, ...) -- CPU_ReadMem(4 bytes @ 0x4000661C) - Data: 00 00 00 00  returns 0x00 (0001ms, 2278ms total)
T1754 002:635 JLINK_ReadMem (0x40006640, 0x00DC Bytes, ...) -- CPU_ReadMem(220 bytes @ 0x40006640) - Data: 00 00 00 00 00 00 00 00 00 00 00 00 00 00 00 00 ...  returns 0x00 (0002ms, 2280ms total)
T1754 002:637 JLINK_ReadMem (0x4000671C, 0x0004 Bytes, ...) -- CPU_ReadMem(4 bytes @ 0x4000671C) - Data: 00 00 00 00  returns 0x00 (0002ms, 2282ms total)
T1754 002:660 JLINK_ReadMem (0x40020000, 0x0014 Bytes, ...) -- CPU_ReadMem(20 bytes @ 0x40020000) - Data: 00 00 00 A8 00 00 00 A8 00 00 00 A8 00 00 00 A8 ...  returns 0x00 (0001ms, 2283ms total)
T1754 002:661 JLINK_ReadMem (0x40020014, 0x0004 Bytes, ...) -- CPU_ReadMem(4 bytes @ 0x40020014) - Data: 00 00 00 A8  returns 0x00 (0002ms, 2285ms total)
T1754 002:663 JLINK_ReadMem (0x4002001C, 0x0008 Bytes, ...) -- CPU_ReadMem(8 bytes @ 0x4002001C) - Data: 00 00 00 A8 00 00 00 A8  returns 0x00 (0003ms, 2288ms total)
T1754 002:666 JLINK_ReadMem (0x40020024, 0x0004 Bytes, ...) -- CPU_ReadMem(4 bytes @ 0x40020024) - Data: 00 00 00 A8  returns 0x00 (0001ms, 2289ms total)
T1754 002:685 JLINK_ReadMem (0x40021C00, 0x0014 Bytes, ...) -- CPU_ReadMem(20 bytes @ 0x40021C00) - Data: 00 00 00 00 00 00 00 00 00 00 00 00 00 00 00 00 ...  returns 0x00 (0001ms, 2290ms total)
T1754 002:686 JLINK_ReadMem (0x40021C14, 0x0004 Bytes, ...) -- CPU_ReadMem(4 bytes @ 0x40021C14) - Data: 00 00 00 00  returns 0x00 (0003ms, 2293ms total)
T1754 002:689 JLINK_ReadMem (0x40021C1C, 0x0008 Bytes, ...) -- CPU_ReadMem(8 bytes @ 0x40021C1C) - Data: 00 00 00 00 00 00 00 00  returns 0x00 (0002ms, 2295ms total)
T1754 002:691 JLINK_ReadMem (0x40021C24, 0x0004 Bytes, ...) -- CPU_ReadMem(4 bytes @ 0x40021C24) - Data: 00 00 00 00  returns 0x00 (0001ms, 2296ms total)
T1754 002:710 JLINK_ReadMem (0x40023800, 0x0018 Bytes, ...) -- CPU_ReadMem(24 bytes @ 0x40023800) - Data: 83 65 00 00 10 30 00 24 00 00 00 00 00 00 00 00 ...  returns 0x00 (0001ms, 2297ms total)
T1754 002:711 JLINK_ReadMem (0x40023818, 0x0004 Bytes, ...) -- CPU_ReadMem(4 bytes @ 0x40023818) - Data: 00 00 00 00  returns 0x00 (0003ms, 2300ms total)
T1754 002:714 JLINK_ReadMem (0x40023820, 0x0004 Bytes, ...) -- CPU_ReadMem(4 bytes @ 0x40023820) - Data: 00 00 00 00  returns 0x00 (0001ms, 2301ms total)
T1754 002:715 JLINK_ReadMem (0x40023824, 0x0004 Bytes, ...) -- CPU_ReadMem(4 bytes @ 0x40023824) - Data: 00 00 00 00  returns 0x00 (0002ms, 2303ms total)
T1754 002:717 JLINK_ReadMem (0x40023830, 0x0008 Bytes, ...) -- CPU_ReadMem(8 bytes @ 0x40023830) - Data: 00 00 10 00 00 00 00 00  returns 0x00 (0001ms, 2304ms total)
T1754 002:718 JLINK_ReadMem (0x40023838, 0x0004 Bytes, ...) -- CPU_ReadMem(4 bytes @ 0x40023838) - Data: 00 00 00 00  returns 0x00 (0003ms, 2307ms total)
T1754 002:721 JLINK_ReadMem (0x40023840, 0x0004 Bytes, ...) -- CPU_ReadMem(4 bytes @ 0x40023840) - Data: 00 00 00 00  returns 0x00 (0002ms, 2309ms total)
T1754 002:723 JLINK_ReadMem (0x40023844, 0x0004 Bytes, ...) -- CPU_ReadMem(4 bytes @ 0x40023844) - Data: 00 00 00 00  returns 0x00 (0001ms, 2310ms total)
T1754 002:724 JLINK_ReadMem (0x40023850, 0x0008 Bytes, ...) -- CPU_ReadMem(8 bytes @ 0x40023850) - Data: FF 97 EF 7E F1 00 00 00  returns 0x00 (0003ms, 2313ms total)
T1754 002:727 JLINK_ReadMem (0x40023858, 0x0004 Bytes, ...) -- CPU_ReadMem(4 bytes @ 0x40023858) - Data: 01 00 00 00  returns 0x00 (0002ms, 2315ms total)
T1754 002:729 JLINK_ReadMem (0x40023860, 0x0004 Bytes, ...) -- CPU_ReadMem(4 bytes @ 0x40023860) - Data: FF C9 FE F6  returns 0x00 (0003ms, 2318ms total)
T1754 002:732 JLINK_ReadMem (0x40023864, 0x0004 Bytes, ...) -- CPU_ReadMem(4 bytes @ 0x40023864) - Data: 33 7F 77 04  returns 0x00 (0002ms, 2320ms total)
T1754 002:734 JLINK_ReadMem (0x40023870, 0x0004 Bytes, ...) -- CPU_ReadMem(4 bytes @ 0x40023870) - Data: 03 81 00 00  returns 0x00 (0001ms, 2321ms total)
T1754 002:735 JLINK_ReadMem (0x40023874, 0x0004 Bytes, ...) -- CPU_ReadMem(4 bytes @ 0x40023874) - Data: 00 00 00 1E  returns 0x00 (0003ms, 2324ms total)
T1754 002:738 JLINK_ReadMem (0x40023880, 0x000C Bytes, ...) -- CPU_ReadMem(12 bytes @ 0x40023880) - Data: 00 00 00 00 00 30 00 24 00 30 00 24  returns 0x00 (0002ms, 2326ms total)
T1754 002:740 JLINK_ReadMem (0x4002388C, 0x0004 Bytes, ...) -- CPU_ReadMem(4 bytes @ 0x4002388C) - Data: 00 00 00 00  returns 0x00 (0001ms, 2327ms total)
T1754 003:347 JLINK_ReadMem (0x20001114, 0x0004 Bytes, ...) -- CPU_ReadMem(64 bytes @ 0x20001100) -- Updating C cache (64 bytes @ 0x20001100) -- Read from C cache (4 bytes @ 0x20001114) - Data: E8 7C 67 C1  returns 0x00 (0002ms, 2329ms total)
T1754 003:351 JLINK_ReadMem (0x200000A4, 0x0004 Bytes, ...) -- CPU_ReadMem(64 bytes @ 0x20000080) -- Updating C cache (64 bytes @ 0x20000080) -- Read from C cache (4 bytes @ 0x200000A4) - Data: 88 FD 3C C1  returns 0x00 (0001ms, 2330ms total)
T1754 003:355 JLINK_ReadMem (0x20000004, 0x0004 Bytes, ...) -- CPU_ReadMem(64 bytes @ 0x20000000) -- Updating C cache (64 bytes @ 0x20000000) -- Read from C cache (4 bytes @ 0x20000004) - Data: 00 00 00 C1  returns 0x00 (0002ms, 2332ms total)
T1754 003:359 JLINK_ReadMem (0x2000000A, 0x0001 Bytes, ...) -- Read from C cache (1 bytes @ 0x2000000A) - Data: 00  returns 0x00 (0000ms, 2332ms total)
T1754 003:361 JLINK_ReadMem (0x20000008, 0x0001 Bytes, ...) -- Read from C cache (1 bytes @ 0x20000008) - Data: 00  returns 0x00 (0000ms, 2332ms total)
T2F80 003:411 JLINK_SetBPEx(Addr = 0x08011490, Type = 0xFFFFFFF2)  returns 0x00000001 (0000ms, 2332ms total)
T2F80 003:411 JLINK_SetBPEx(Addr = 0x08009462, Type = 0xFFFFFFF2)  returns 0x00000002 (0000ms, 2332ms total)
T2F80 003:411 JLINK_Go() -- CPU_WriteMem(4 bytes @ 0xE0002000) -- CPU_WriteMem(4 bytes @ 0xE0002000) -- CPU_ReadMem(4 bytes @ 0xE0001000) -- CPU_WriteMem(4 bytes @ 0xE0002008) -- CPU_WriteMem(4 bytes @ 0xE000200C) -- CPU_WriteMem(4 bytes @ 0xE0002010) -- CPU_WriteMem(4 bytes @ 0xE0002014) -- CPU_WriteMem(4 bytes @ 0xE0002018) -- CPU_WriteMem(4 bytes @ 0xE000201C) -- CPU_WriteMem(4 bytes @ 0xE0001004) (0009ms, 2341ms total)
T2F80 003:520 JLINK_IsHalted()  returns TRUE (0004ms, 2345ms total)
T2F80 003:524 JLINK_Halt()  returns 0x00 (0000ms, 2341ms total)
T2F80 003:524 JLINK_IsHalted()  returns TRUE (0000ms, 2341ms total)
T2F80 003:524 JLINK_IsHalted()  returns TRUE (0000ms, 2341ms total)
T2F80 003:524 JLINK_IsHalted()  returns TRUE (0000ms, 2341ms total)
T2F80 003:524 JLINK_ReadReg(R15 (PC))  returns 0x08011490 (0000ms, 2341ms total)
T2F80 003:524 JLINK_ReadReg(XPSR)  returns 0x61000000 (0000ms, 2341ms total)
T2F80 003:524 JLINK_ClrBPEx(BPHandle = 0x00000001)  returns 0x00 (0000ms, 2341ms total)
T2F80 003:524 JLINK_ClrBPEx(BPHandle = 0x00000002)  returns 0x00 (0000ms, 2341ms total)
T2F80 003:524 JLINK_ReadMemU32(0xE000ED30, 0x0001 Items, ...) -- CPU_ReadMem(4 bytes @ 0xE000ED30) - Data: 02 00 00 00  returns 0x01 (0002ms, 2343ms total)
T2F80 003:526 JLINK_ReadMemU32(0xE0001028, 0x0001 Items, ...) -- CPU_ReadMem(4 bytes @ 0xE0001028) - Data: 00 00 00 00  returns 0x01 (0001ms, 2344ms total)
T2F80 003:527 JLINK_ReadMemU32(0xE0001038, 0x0001 Items, ...) -- CPU_ReadMem(4 bytes @ 0xE0001038) - Data: 00 02 00 00  returns 0x01 (0001ms, 2345ms total)
T2F80 003:528 JLINK_ReadMemU32(0xE0001048, 0x0001 Items, ...) -- CPU_ReadMem(4 bytes @ 0xE0001048) - Data: 00 00 00 00  returns 0x01 (0001ms, 2346ms total)
T2F80 003:529 JLINK_ReadMemU32(0xE0001058, 0x0001 Items, ...) -- CPU_ReadMem(4 bytes @ 0xE0001058) - Data: 00 00 00 00  returns 0x01 (0001ms, 2347ms total)
T2F80 003:530 JLINK_ReadReg(R0)  returns 0x08011491 (0000ms, 2347ms total)
T2F80 003:530 JLINK_ReadReg(R1)  returns 0x200172E8 (0000ms, 2347ms total)
T2F80 003:530 JLINK_ReadReg(R2)  returns 0x00000000 (0000ms, 2347ms total)
T2F80 003:530 JLINK_ReadReg(R3)  returns 0x0800E1FF (0000ms, 2347ms total)
T2F80 003:530 JLINK_ReadReg(R4)  returns 0x0803D1C8 (0000ms, 2347ms total)
T2F80 003:530 JLINK_ReadReg(R5)  returns 0x0803D1C8 (0000ms, 2347ms total)
T2F80 003:530 JLINK_ReadReg(R6)  returns 0x00000000 (0000ms, 2347ms total)
T2F80 003:530 JLINK_ReadReg(R7)  returns 0x00000000 (0000ms, 2347ms total)
T2F80 003:530 JLINK_ReadReg(R8)  returns 0x00000000 (0000ms, 2347ms total)
T2F80 003:530 JLINK_ReadReg(R9)  returns 0x00000000 (0000ms, 2347ms total)
T2F80 003:530 JLINK_ReadReg(R10)  returns 0x00000000 (0000ms, 2347ms total)
T2F80 003:530 JLINK_ReadReg(R11)  returns 0x00000000 (0000ms, 2347ms total)
T2F80 003:530 JLINK_ReadReg(R12)  returns 0x00000000 (0000ms, 2347ms total)
T2F80 003:530 JLINK_ReadReg(R13 (SP))  returns 0x200172E8 (0000ms, 2347ms total)
T2F80 003:530 JLINK_ReadReg(R14)  returns 0x08001001 (0000ms, 2347ms total)
T2F80 003:530 JLINK_ReadReg(R15 (PC))  returns 0x08011490 (0000ms, 2347ms total)
T2F80 003:530 JLINK_ReadReg(XPSR)  returns 0x61000000 (0000ms, 2347ms total)
T2F80 003:530 JLINK_ReadReg(MSP)  returns 0x200172E8 (0000ms, 2347ms total)
T2F80 003:530 JLINK_ReadReg(PSP)  returns 0x00000000 (0000ms, 2347ms total)
T2F80 003:530 JLINK_ReadReg(CFBP)  returns 0x00000000 (0000ms, 2347ms total)
T2F80 003:530 JLINK_ReadReg(FPSCR)  returns 0x00000000 (0008ms, 2355ms total)
T2F80 003:538 JLINK_ReadReg(FPS0)  returns 0x00000000 (0000ms, 2355ms total)
T2F80 003:538 JLINK_ReadReg(FPS1)  returns 0x00000000 (0000ms, 2355ms total)
T2F80 003:538 JLINK_ReadReg(FPS2)  returns 0x00000000 (0000ms, 2355ms total)
T2F80 003:538 JLINK_ReadReg(FPS3)  returns 0x00000000 (0000ms, 2355ms total)
T2F80 003:538 JLINK_ReadReg(FPS4)  returns 0x00000000 (0000ms, 2355ms total)
T2F80 003:538 JLINK_ReadReg(FPS5)  returns 0x00000000 (0000ms, 2355ms total)
T2F80 003:538 JLINK_ReadReg(FPS6)  returns 0x00000000 (0001ms, 2356ms total)
T2F80 003:539 JLINK_ReadReg(FPS7)  returns 0x00000000 (0000ms, 2356ms total)
T2F80 003:539 JLINK_ReadReg(FPS8)  returns 0x00000000 (0000ms, 2356ms total)
T2F80 003:539 JLINK_ReadReg(FPS9)  returns 0x00000000 (0000ms, 2356ms total)
T2F80 003:539 JLINK_ReadReg(FPS10)  returns 0x00000000 (0000ms, 2356ms total)
T2F80 003:539 JLINK_ReadReg(FPS11)  returns 0x00000000 (0000ms, 2356ms total)
T2F80 003:539 JLINK_ReadReg(FPS12)  returns 0x00000000 (0000ms, 2356ms total)
T2F80 003:539 JLINK_ReadReg(FPS13)  returns 0x00000000 (0000ms, 2356ms total)
T2F80 003:539 JLINK_ReadReg(FPS14)  returns 0x00000000 (0000ms, 2356ms total)
T2F80 003:539 JLINK_ReadReg(FPS15)  returns 0x00000000 (0000ms, 2356ms total)
T2F80 003:539 JLINK_ReadReg(FPS16)  returns 0x00000000 (0000ms, 2356ms total)
T2F80 003:539 JLINK_ReadReg(FPS17)  returns 0x00000000 (0000ms, 2356ms total)
T2F80 003:539 JLINK_ReadReg(FPS18)  returns 0x00000000 (0000ms, 2356ms total)
T2F80 003:539 JLINK_ReadReg(FPS19)  returns 0x00000000 (0000ms, 2356ms total)
T2F80 003:539 JLINK_ReadReg(FPS20)  returns 0x00000000 (0000ms, 2356ms total)
T2F80 003:539 JLINK_ReadReg(FPS21)  returns 0x00000000 (0000ms, 2356ms total)
T2F80 003:539 JLINK_ReadReg(FPS22)  returns 0x00000000 (0000ms, 2356ms total)
T2F80 003:539 JLINK_ReadReg(FPS23)  returns 0x00000000 (0000ms, 2356ms total)
T2F80 003:539 JLINK_ReadReg(FPS24)  returns 0x00000000 (0000ms, 2356ms total)
T2F80 003:539 JLINK_ReadReg(FPS25)  returns 0x00000000 (0000ms, 2356ms total)
T2F80 003:539 JLINK_ReadReg(FPS26)  returns 0x00000000 (0000ms, 2356ms total)
T2F80 003:539 JLINK_ReadReg(FPS27)  returns 0x00000000 (0000ms, 2356ms total)
T2F80 003:539 JLINK_ReadReg(FPS28)  returns 0x00000000 (0000ms, 2356ms total)
T2F80 003:539 JLINK_ReadReg(FPS29)  returns 0x00000000 (0000ms, 2356ms total)
T2F80 003:539 JLINK_ReadReg(FPS30)  returns 0x00000000 (0000ms, 2356ms total)
T2F80 003:539 JLINK_ReadReg(FPS31)  returns 0x00000000 (0000ms, 2356ms total)
T1754 003:540 JLINK_ReadMem (0x20001114, 0x0004 Bytes, ...) -- CPU_ReadMem(64 bytes @ 0x20001100) -- Updating C cache (64 bytes @ 0x20001100) -- Read from C cache (4 bytes @ 0x20001114) - Data: E8 7C 67 C1  returns 0x00 (0002ms, 2358ms total)
T1754 003:542 JLINK_ReadMem (0x200000A4, 0x0004 Bytes, ...) -- CPU_ReadMem(64 bytes @ 0x20000080) -- Updating C cache (64 bytes @ 0x20000080) -- Read from C cache (4 bytes @ 0x200000A4) - Data: 88 FD 3C C1  returns 0x00 (0002ms, 2360ms total)
T1754 003:545 JLINK_ReadMem (0x20000004, 0x0004 Bytes, ...) -- CPU_ReadMem(64 bytes @ 0x20000000) -- Updating C cache (64 bytes @ 0x20000000) -- Read from C cache (4 bytes @ 0x20000004) - Data: 00 00 00 C1  returns 0x00 (0002ms, 2362ms total)
T1754 003:547 JLINK_ReadMem (0x2000000A, 0x0001 Bytes, ...) -- Read from C cache (1 bytes @ 0x2000000A) - Data: 00  returns 0x00 (0000ms, 2362ms total)
T1754 003:547 JLINK_ReadMem (0x20000008, 0x0001 Bytes, ...) -- Read from C cache (1 bytes @ 0x20000008) - Data: 00  returns 0x00 (0000ms, 2362ms total)
T1754 003:547 JLINK_ReadMem (0x40021C00, 0x0014 Bytes, ...) -- CPU_ReadMem(20 bytes @ 0x40021C00) - Data: 00 00 00 00 00 00 00 00 00 00 00 00 00 00 00 00 ...  returns 0x00 (0003ms, 2365ms total)
T1754 003:550 JLINK_ReadMem (0x40021C14, 0x0004 Bytes, ...) -- CPU_ReadMem(4 bytes @ 0x40021C14) - Data: 00 00 00 00  returns 0x00 (0002ms, 2367ms total)
T1754 003:552 JLINK_ReadMem (0x40021C1C, 0x0008 Bytes, ...) -- CPU_ReadMem(8 bytes @ 0x40021C1C) - Data: 00 00 00 00 00 00 00 00  returns 0x00 (0002ms, 2369ms total)
T1754 003:554 JLINK_ReadMem (0x40021C24, 0x0004 Bytes, ...) -- CPU_ReadMem(4 bytes @ 0x40021C24) - Data: 00 00 00 00  returns 0x00 (0001ms, 2370ms total)
T1754 003:556 JLINK_ReadMem (0x40020000, 0x0014 Bytes, ...) -- CPU_ReadMem(20 bytes @ 0x40020000) - Data: 00 00 00 A8 00 00 00 A8 00 00 00 A8 00 00 00 A8 ...  returns 0x00 (0002ms, 2372ms total)
T1754 003:558 JLINK_ReadMem (0x40020014, 0x0004 Bytes, ...) -- CPU_ReadMem(4 bytes @ 0x40020014) - Data: 00 00 00 A8  returns 0x00 (0003ms, 2375ms total)
T1754 003:561 JLINK_ReadMem (0x4002001C, 0x0008 Bytes, ...) -- CPU_ReadMem(8 bytes @ 0x4002001C) - Data: 00 00 00 A8 00 00 00 A8  returns 0x00 (0002ms, 2377ms total)
T1754 003:563 JLINK_ReadMem (0x40020024, 0x0004 Bytes, ...) -- CPU_ReadMem(4 bytes @ 0x40020024) - Data: 00 00 00 A8  returns 0x00 (0002ms, 2379ms total)
T1754 003:566 JLINK_ReadMem (0x40006400, 0x001C Bytes, ...) -- CPU_ReadMem(28 bytes @ 0x40006400) - Data: 02 00 01 00 0A 0C 00 00 00 00 00 1C 00 00 00 00 ...  returns 0x00 (0002ms, 2381ms total)
T1754 003:568 JLINK_ReadMem (0x4000641C, 0x0004 Bytes, ...) -- CPU_ReadMem(4 bytes @ 0x4000641C) - Data: 00 00 23 01  returns 0x00 (0002ms, 2383ms total)
T1754 003:570 JLINK_ReadMem (0x40006580, 0x004C Bytes, ...) -- CPU_ReadMem(76 bytes @ 0x40006580) - Data: 00 00 00 00 00 00 00 00 00 00 00 00 00 00 00 00 ...  returns 0x00 (0002ms, 2385ms total)
T1754 003:572 JLINK_ReadMem (0x400065CC, 0x0004 Bytes, ...) -- CPU_ReadMem(4 bytes @ 0x400065CC) - Data: 00 00 00 00  returns 0x00 (0002ms, 2387ms total)
T1754 003:574 JLINK_ReadMem (0x40006600, 0x0004 Bytes, ...) -- CPU_ReadMem(4 bytes @ 0x40006600) - Data: 01 0E 1C 2A  returns 0x00 (0002ms, 2389ms total)
T1754 003:576 JLINK_ReadMem (0x40006604, 0x0004 Bytes, ...) -- CPU_ReadMem(4 bytes @ 0x40006604) - Data: 00 00 00 00  returns 0x00 (0003ms, 2392ms total)
T1754 003:579 JLINK_ReadMem (0x4000660C, 0x0004 Bytes, ...) -- CPU_ReadMem(4 bytes @ 0x4000660C) - Data: 00 00 00 00  returns 0x00 (0002ms, 2394ms total)
T1754 003:581 JLINK_ReadMem (0x40006614, 0x0004 Bytes, ...) -- CPU_ReadMem(4 bytes @ 0x40006614) - Data: 00 00 00 00  returns 0x00 (0001ms, 2395ms total)
T1754 003:582 JLINK_ReadMem (0x4000661C, 0x0004 Bytes, ...) -- CPU_ReadMem(4 bytes @ 0x4000661C) - Data: 00 00 00 00  returns 0x00 (0001ms, 2396ms total)
T1754 003:583 JLINK_ReadMem (0x40006640, 0x00DC Bytes, ...) -- CPU_ReadMem(220 bytes @ 0x40006640) - Data: 00 00 00 00 00 00 00 00 00 00 00 00 00 00 00 00 ...  returns 0x00 (0003ms, 2399ms total)
T1754 003:586 JLINK_ReadMem (0x4000671C, 0x0004 Bytes, ...) -- CPU_ReadMem(4 bytes @ 0x4000671C) - Data: 00 00 00 00  returns 0x00 (0002ms, 2401ms total)
T1754 003:590 JLINK_ReadMem (0x40023800, 0x0018 Bytes, ...) -- CPU_ReadMem(24 bytes @ 0x40023800) - Data: 83 65 03 03 08 54 40 07 0A 94 00 00 00 00 00 00 ...  returns 0x00 (0003ms, 2404ms total)
T1754 003:593 JLINK_ReadMem (0x40023818, 0x0004 Bytes, ...) -- CPU_ReadMem(4 bytes @ 0x40023818) - Data: 00 00 00 00  returns 0x00 (0001ms, 2405ms total)
T1754 003:594 JLINK_ReadMem (0x40023820, 0x0004 Bytes, ...) -- CPU_ReadMem(4 bytes @ 0x40023820) - Data: 00 00 00 00  returns 0x00 (0001ms, 2406ms total)
T1754 003:595 JLINK_ReadMem (0x40023824, 0x0004 Bytes, ...) -- CPU_ReadMem(4 bytes @ 0x40023824) - Data: 00 00 00 00  returns 0x00 (0001ms, 2407ms total)
T1754 003:596 JLINK_ReadMem (0x40023830, 0x0008 Bytes, ...) -- CPU_ReadMem(8 bytes @ 0x40023830) - Data: 00 00 10 00 00 00 00 00  returns 0x00 (0002ms, 2409ms total)
T1754 003:598 JLINK_ReadMem (0x40023838, 0x0004 Bytes, ...) -- CPU_ReadMem(4 bytes @ 0x40023838) - Data: 00 00 00 00  returns 0x00 (0001ms, 2410ms total)
T1754 003:599 JLINK_ReadMem (0x40023840, 0x0004 Bytes, ...) -- CPU_ReadMem(4 bytes @ 0x40023840) - Data: 00 00 00 10  returns 0x00 (0001ms, 2411ms total)
T1754 003:600 JLINK_ReadMem (0x40023844, 0x0004 Bytes, ...) -- CPU_ReadMem(4 bytes @ 0x40023844) - Data: 00 00 00 00  returns 0x00 (0002ms, 2413ms total)
T1754 003:602 JLINK_ReadMem (0x40023850, 0x0008 Bytes, ...) -- CPU_ReadMem(8 bytes @ 0x40023850) - Data: FF 97 EF 7E F1 00 00 00  returns 0x00 (0003ms, 2416ms total)
T1754 003:605 JLINK_ReadMem (0x40023858, 0x0004 Bytes, ...) -- CPU_ReadMem(4 bytes @ 0x40023858) - Data: 01 00 00 00  returns 0x00 (0001ms, 2417ms total)
T1754 003:606 JLINK_ReadMem (0x40023860, 0x0004 Bytes, ...) -- CPU_ReadMem(4 bytes @ 0x40023860) - Data: FF C9 FE F6  returns 0x00 (0002ms, 2419ms total)
T1754 003:608 JLINK_ReadMem (0x40023864, 0x0004 Bytes, ...) -- CPU_ReadMem(4 bytes @ 0x40023864) - Data: 33 7F 77 04  returns 0x00 (0002ms, 2421ms total)
T1754 003:610 JLINK_ReadMem (0x40023870, 0x0004 Bytes, ...) -- CPU_ReadMem(4 bytes @ 0x40023870) - Data: 03 81 00 00  returns 0x00 (0001ms, 2422ms total)
T1754 003:611 JLINK_ReadMem (0x40023874, 0x0004 Bytes, ...) -- CPU_ReadMem(4 bytes @ 0x40023874) - Data: 00 00 00 1E  returns 0x00 (0003ms, 2425ms total)
T1754 003:614 JLINK_ReadMem (0x40023880, 0x000C Bytes, ...) -- CPU_ReadMem(12 bytes @ 0x40023880) - Data: 00 00 00 00 00 30 00 24 00 30 00 24  returns 0x00 (0002ms, 2427ms total)
T1754 003:616 JLINK_ReadMem (0x4002388C, 0x0004 Bytes, ...) -- CPU_ReadMem(4 bytes @ 0x4002388C) - Data: 00 00 00 00  returns 0x00 (0003ms, 2430ms total)
T1754 010:086 JLINK_ReadMem (0xC13CFD88, 0x0020 Bytes, ...) -- CPU_ReadMem(32 bytes @ 0xC13CFD88) - Data: 00 00 00 00 00 00 00 00 00 00 00 00 00 00 00 00 ...  returns 0x00 (0002ms, 2432ms total)
T1754 010:088 JLINK_ReadMem (0xC13F1CF4, 0x0020 Bytes, ...) -- CPU_ReadMem(32 bytes @ 0xC13F1CF4) - Data: 00 00 00 00 00 00 00 00 00 00 00 00 00 00 00 00 ...  returns 0x00 (0002ms, 2434ms total)
T1754 010:090 JLINK_ReadMem (0xC13F1EF4, 0x0002 Bytes, ...) -- CPU_ReadMem(2 bytes @ 0xC13F1EF4) - Data: 00 00  returns 0x00 (0002ms, 2436ms total)
T1754 010:092 JLINK_ReadMem (0xC13F1EF6, 0x0020 Bytes, ...) -- CPU_ReadMem(32 bytes @ 0xC13F1EF6) - Data: 00 00 00 00 00 00 00 00 00 00 00 00 00 00 00 00 ...  returns 0x00 (0002ms, 2438ms total)
T1754 010:094 JLINK_ReadMem (0xC13F2138, 0x0001 Bytes, ...) -- CPU_ReadMem(1 bytes @ 0xC13F2138) - Data: 00  returns 0x00 (0001ms, 2439ms total)
T1754 010:095 JLINK_ReadMem (0xC167253C, 0x0001 Bytes, ...) -- CPU_ReadMem(1 bytes @ 0xC167253C) - Data: 00  returns 0x00 (0002ms, 2441ms total)
T1754 010:097 JLINK_ReadMem (0xC167253D, 0x0010 Bytes, ...) -- CPU_ReadMem(16 bytes @ 0xC167253D) - Data: 00 00 00 00 00 00 00 00 00 00 00 00 00 00 00 00  returns 0x00 (0002ms, 2443ms total)
T1754 010:099 JLINK_ReadMem (0xC167264E, 0x0020 Bytes, ...) -- CPU_ReadMem(32 bytes @ 0xC167264E) - Data: 00 00 00 00 00 00 00 00 00 00 00 00 00 00 00 00 ...  returns 0x00 (0002ms, 2445ms total)
T1754 010:101 JLINK_ReadMem (0xC16726CE, 0x0020 Bytes, ...) -- CPU_ReadMem(32 bytes @ 0xC16726CE) - Data: 00 00 00 00 00 00 00 00 00 00 00 00 00 00 00 00 ...  returns 0x00 (0002ms, 2447ms total)
T1754 010:103 JLINK_ReadMem (0xC16750CE, 0x0020 Bytes, ...) -- CPU_ReadMem(32 bytes @ 0xC16750CE) - Data: 00 00 00 00 00 00 00 00 00 00 00 00 00 00 00 00 ...  returns 0x00 (0002ms, 2449ms total)
T1754 010:105 JLINK_ReadMem (0xC16754DC, 0x0004 Bytes, ...) -- CPU_ReadMem(4 bytes @ 0xC16754DC) - Data: 00 00 00 00  returns 0x00 (0001ms, 2450ms total)
T1754 010:106 JLINK_ReadMem (0xC16754E0, 0x0001 Bytes, ...) -- CPU_ReadMem(1 bytes @ 0xC16754E0) - Data: 00  returns 0x00 (0001ms, 2451ms total)
T1754 010:107 JLINK_ReadMem (0xC16754E1, 0x0020 Bytes, ...) -- CPU_ReadMem(32 bytes @ 0xC16754E1) - Data: 00 00 00 00 00 00 00 00 00 00 00 00 00 00 00 00 ...  returns 0x00 (0002ms, 2453ms total)
T1754 019:797 JLINK_ReadMem (0xC13F20F8, 0x0004 Bytes, ...) -- CPU_ReadMem(4 bytes @ 0xC13F20F8) - Data: 00 00 00 00  returns 0x00 (0002ms, 2455ms total)
T1754 019:799 JLINK_ReadMem (0xC13F20FC, 0x0004 Bytes, ...) -- CPU_ReadMem(4 bytes @ 0xC13F20FC) - Data: 00 00 00 00  returns 0x00 (0001ms, 2456ms total)
